 Decoded Protocol Result
Setup Write to [0x22] + ACK
TCPC_REG_RESET + ACK
0x01 + ACK
Setup Write to [0x22] + ACK -> ???
fusb302_DEVID_302B + ACK
Setup Read to [0x22] + ACK
0x06 + NAK
Setup Write to [0x22] + ACK
fusb302_DEVID_302B + ACK
0x07 + ACK
Setup Write to [0x22] + ACK
TCPC_REG_MASK + ACK
0xE4 + ACK
Setup Write to [0x22] + ACK
TCPC_REG_MASKA + ACK
0xE2 + ACK
Setup Write to [0x22] + ACK
TCPC_REG_MASKB + ACK
0xFE + ACK
Setup Write to [0x22] + ACK -> read from control0
TCPC_REG_CONTROL0 + ACK
Setup Read to [0x22] + ACK
0x24 + NAK
Setup Write to [0x22] + ACK
TCPC_REG_CONTROL0 + ACK
0x00 + ACK
Setup Write to [0x22] + ACK
TCPC_REG_SWITCHES0 + ACK
Setup Read to [0x22] + ACK
0x03 + NAK
Setup Write to [0x22] + ACK
TCPC_REG_SWITCHES0 + ACK
0x04 + ACK
Setup Write to [0x22] + ACK
TCPC_REG_SWITCHES1 + ACK
Setup Read to [0x22] + ACK
0x20 + NAK
Setup Write to [0x22] + ACK
TCPC_REG_SWITCHES1 + ACK
0x01 + ACK
Setup Write to [0x22] + ACK
TCPC_REG_SWITCHES0 + ACK
Setup Read to [0x22] + ACK
0x04 + NAK
Setup Write to [0x22] + ACK -> clear switches0 again
TCPC_REG_SWITCHES0 + ACK
0x00 + ACK
Setup Write to [0x22] + ACK
0x0B + ACK
0x0F + ACK


// START HERE

Setup Write to [0x22] + ACK
TCPC_REG_RESET + ACK 
0x01 + ACK					-> Reset
Setup Write to [0x22] + ACK
fusb302_DEVID_302B + ACK	-> ???
Setup Read to [0x22] + ACK
0x06 + NAK
Setup Write to [0x22] + ACK
fusb302_DEVID_302B + ACK
0x07 + ACK					-> enbles src polling, needs DRP? 0x03
Setup Write to [0x22] + ACK
TCPC_REG_MASK + ACK			-> Mask1
0xE4 + ACK					-> mask interrupts
Setup Write to [0x22] + ACK
TCPC_REG_MASKA + ACK		-> MaskA
0xE2 + ACK					-> mask interrupts
Setup Write to [0x22] + ACK
TCPC_REG_MASKB + ACK		-> MaskB
0xFE + ACK					-> mask interrupts
Setup Write to [0x22] + ACK
TCPC_REG_CONTROL0 + ACK		-> Read Control0
Setup Read to [0x22] + ACK
0x24 + NAK					-> Default USB power present, ints are activated
Setup Write to [0x22] + ACK
TCPC_REG_CONTROL0 + ACK		-> clear control0, ???
0x00 + ACK
Setup Write to [0x22] + ACK
TCPC_REG_SWITCHES0 + ACK	-> Read switches0
Setup Read to [0x22] + ACK
0x03 + NAK					-> Pulldowns on CC
Setup Write to [0x22] + ACK
TCPC_REG_SWITCHES0 + ACK	-> Write switches0
0x04 + ACK					-> monitor V on CC1, ok?
Setup Write to [0x22] + ACK
TCPC_REG_SWITCHES1 + ACK	-> Read switches1
Setup Read to [0x22] + ACK
0x20 + NAK					-> GoodCRC V2, sink if SOP
Setup Write to [0x22] + ACK
TCPC_REG_SWITCHES1 + ACK	-> Write to switches1
0x01 + ACK					-> Set to SRC ???
Setup Write to [0x22] + ACK
TCPC_REG_SWITCHES0 + ACK	-> Read switches0
Setup Read to [0x22] + ACK	-> monitor V on CC1
0x04 + NAK
Setup Write to [0x22] + ACK	-> Write to switches0
TCPC_REG_SWITCHES0 + ACK	-> clear switches0 ???
0x00 + ACK
Setup Write to [0x22] + ACK -> Write to power reg
TCPC_REG_POWER + ACK		-> turn everything on
0x0F + ACK
Setup Write to [0x22] + ACK	-> Read switches0
TCPC_REG_SWITCHES0 + ACK
Setup Read to [0x22] + ACK	-> switches0 still cleared
0x00 + NAK
Setup Write to [0x22] + ACK	-> write to switches0
TCPC_REG_SWITCHES0 + ACK	-> clear them again
0x00 + ACK
Setup Write to [0x22] + ACK
TCPC_REG_MASK + ACK			-> read reg mask
Setup Read to [0x22] + ACK	
0xE4 + NAK					-> interrupts are still on
Setup Write to [0x22] + ACK
TCPC_REG_MASK + ACK			-> clear reg mask
0x00 + ACK
Setup Write to [0x22] + ACK
TCPC_REG_SWITCHES1 + ACK	-> Read switches 1
Setup Read to [0x22] + ACK
0x01 + NAK					-> transmitter driver bmc on CC1
Setup Write to [0x22] + ACK
TCPC_REG_SWITCHES1 + ACK	-> clear switches1
0x00 + ACK
Setup Write to [0x22] + ACK -> Read switches0
TCPC_REG_SWITCHES0 + ACK
Setup Read to [0x22] + ACK -> switches0 still cleared
0x00 + NAK
Setup Write to [0x22] + ACK -> clear switches0 again
TCPC_REG_SWITCHES0 + ACK
0x00 + ACK
Setup Write to [0x22] + ACK -> read mask
TCPC_REG_MASK + ACK
Setup Read to [0x22] + ACK
0x00 + NAK
Setup Write to [0x22] + ACK -> clear mask again
TCPC_REG_MASK + ACK
0x00 + ACK
Setup Write to [0x22] + ACK -> Read switches1
TCPC_REG_SWITCHES1 + ACK
Setup Read to [0x22] + ACK -> switches1 still cleared
0x00 + NAK
Setup Write to [0x22] + ACK -> clear switches1 again
TCPC_REG_SWITCHES1 + ACK
0x00 + ACK
Setup Write to [0x22] + ACK -> read control0
TCPC_REG_CONTROL0 + ACK
Setup Read to [0x22] + ACK
0x00 + NAK
Setup Write to [0x22] + ACK -> enable default usb power
TCPC_REG_CONTROL0 + ACK
0x04 + ACK
Setup Write to [0x22] + ACK -> ???
TCPC_REG_CONTROL2 + ACK
Setup Read to [0x22] + ACK
0x02 + NAK
Setup Write to [0x22] + ACK -> ??? clear control2
TCPC_REG_CONTROL2 + ACK
0x00 + ACK
Setup Write to [0x22] + ACK -> Read switches0
TCPC_REG_SWITCHES0 + ACK
Setup Read to [0x22] + ACK -> switches0 still cleared
0x00 + NAK
Setup Write to [0x22] + ACK	-> enable CC pulldowns
TCPC_REG_SWITCHES0 + ACK
0x03 + ACK
Setup Write to [0x22] + ACK -> read interrupt reg
TCPC_REG_INTERRUPT + ACK
Setup Read to [0x22] + ACK
0x00 + NAK
Setup Write to [0x22] + ACK -> read interruptA reg
TCPC_REG_INTERRUPTA + ACK
Setup Read to [0x22] + ACK
0x00 + NAK
Setup Write to [0x22] + ACK -> read interruptB reg
TCPC_REG_INTERRUPTB + ACK
Setup Read to [0x22] + ACK
0x00 + NAK
Setup Write to [0x22] + ACK	-> read status 1
TCPC_REG_STATUS1 + ACK
Setup Read to [0x22] + ACK	-> TX and RX fife are empty
0x28 + NAK
Setup Write to [0x22] + ACK
TCPC_REG_FIFOS + ACK
Setup Read to [0x22] + ACK
0x00 + ACK
0x00 + ACK
0x00 + NAK
Setup Read to [0x22] + ACK
0x00 + ACK
0x00 + ACK
0x00 + ACK
0x00 + NAK
Setup Write to [0x22] + ACK -> read from control0
TCPC_REG_CONTROL0 + ACK
Setup Read to [0x22] + ACK
0x04 + NAK
Setup Write to [0x22] + ACK
TCPC_REG_CONTROL0 + ACK
0x40 + ACK
Setup Write to [0x22] + ACK -> ???
fusb302_DEVID_302B + ACK
Setup Read to [0x22] + ACK
0x07 + NAK
Setup Write to [0x22] + ACK
fusb302_DEVID_302B + ACK
0x40 + ACK
Setup Write to [0x22] + ACK -> read interrupt reg
TCPC_REG_INTERRUPT + ACK
Setup Read to [0x22] + ACK
0x00 + NAK
Setup Write to [0x22] + ACK
TCPC_REG_INTERRUPTA + ACK
Setup Read to [0x22] + ACK
0x08 + NAK
Setup Write to [0x22] + ACK -> read interruptB reg
TCPC_REG_INTERRUPTB + ACK
Setup Read to [0x22] + ACK
0x00 + NAK
Setup Write to [0x22] + ACK
TCPC_REG_STATUS1 + ACK
Setup Read to [0x22] + ACK
0x28 + NAK
Setup Write to [0x22] + ACK
TCPC_REG_FIFOS + ACK
Setup Read to [0x22] + ACK
0x00 + ACK
0x00 + ACK
0x00 + NAK
Setup Read to [0x22] + ACK
0x00 + ACK
0x00 + ACK
0x00 + ACK
0x00 + NAK
Setup Write to [0x22] + ACK -> read interrupt reg
TCPC_REG_INTERRUPT + ACK
Setup Read to [0x22] + ACK
0x00 + NAK
Setup Write to [0x22] + ACK -> read interruptA reg
TCPC_REG_INTERRUPTA + ACK
Setup Read to [0x22] + ACK
0x00 + NAK
Setup Write to [0x22] + ACK -> read interruptB reg
TCPC_REG_INTERRUPTB + ACK
Setup Read to [0x22] + ACK
0x00 + NAK
Setup Write to [0x22] + ACK
TCPC_REG_STATUS1 + ACK
Setup Read to [0x22] + ACK
0x28 + NAK
Setup Write to [0x22] + ACK
TCPC_REG_FIFOS + ACK
Setup Read to [0x22] + ACK
0x00 + ACK
0x00 + ACK
0x00 + NAK
Setup Read to [0x22] + ACK
0x00 + ACK
0x00 + ACK
0x00 + ACK
0x00 + NAK
Setup Write to [0x22] + ACK -> read interrupt reg
TCPC_REG_INTERRUPT + ACK
Setup Read to [0x22] + ACK
0x00 + NAK
Setup Write to [0x22] + ACK -> read interruptA reg
TCPC_REG_INTERRUPTA + ACK
Setup Read to [0x22] + ACK
0x00 + NAK
Setup Write to [0x22] + ACK -> read interruptB reg
TCPC_REG_INTERRUPTB + ACK
Setup Read to [0x22] + ACK
0x00 + NAK
Setup Write to [0x22] + ACK
TCPC_REG_STATUS1 + ACK
Setup Read to [0x22] + ACK
0x28 + NAK
Setup Write to [0x22] + ACK
TCPC_REG_FIFOS + ACK
Setup Read to [0x22] + ACK
0x00 + ACK
0x00 + ACK
0x00 + NAK
Setup Read to [0x22] + ACK
0x00 + ACK
0x00 + ACK
0x00 + ACK
0x00 + NAK
Setup Write to [0x22] + ACK -> read interrupt reg
TCPC_REG_INTERRUPT + ACK
Setup Read to [0x22] + ACK
0x00 + NAK
Setup Write to [0x22] + ACK -> read interruptA reg
TCPC_REG_INTERRUPTA + ACK
Setup Read to [0x22] + ACK
0x00 + NAK
Setup Write to [0x22] + ACK -> read interruptB reg
TCPC_REG_INTERRUPTB + ACK
Setup Read to [0x22] + ACK
0x00 + NAK
Setup Write to [0x22] + ACK
TCPC_REG_STATUS1 + ACK
Setup Read to [0x22] + ACK
0x28 + NAK
Setup Write to [0x22] + ACK
TCPC_REG_FIFOS + ACK
Setup Read to [0x22] + ACK
0x00 + ACK
0x00 + ACK
0x00 + NAK
Setup Read to [0x22] + ACK
0x00 + ACK
0x00 + ACK
0x00 + ACK
0x00 + NAK
Setup Write to [0x22] + ACK -> read interrupt reg
TCPC_REG_INTERRUPT + ACK
Setup Read to [0x22] + ACK
0x00 + NAK
Setup Write to [0x22] + ACK -> read interruptA reg
TCPC_REG_INTERRUPTA + ACK
Setup Read to [0x22] + ACK
0x00 + NAK
Setup Write to [0x22] + ACK -> read interruptB reg
TCPC_REG_INTERRUPTB + ACK
Setup Read to [0x22] + ACK
0x00 + NAK
Setup Write to [0x22] + ACK
TCPC_REG_STATUS1 + ACK
Setup Read to [0x22] + ACK
0x28 + NAK
Setup Write to [0x22] + ACK
TCPC_REG_FIFOS + ACK
Setup Read to [0x22] + ACK
0x00 + ACK
0x00 + ACK
0x00 + NAK
Setup Read to [0x22] + ACK
0x00 + ACK
0x00 + ACK
0x00 + ACK
0x00 + NAK
Setup Write to [0x22] + ACK -> read interrupt reg
TCPC_REG_INTERRUPT + ACK
Setup Read to [0x22] + ACK
0x00 + NAK
Setup Write to [0x22] + ACK -> read interruptA reg
TCPC_REG_INTERRUPTA + ACK
Setup Read to [0x22] + ACK
0x00 + NAK
Setup Write to [0x22] + ACK -> read interruptB reg
TCPC_REG_INTERRUPTB + ACK
Setup Read to [0x22] + ACK
0x00 + NAK
Setup Write to [0x22] + ACK
TCPC_REG_STATUS1 + ACK
Setup Read to [0x22] + ACK
0x28 + NAK
Setup Write to [0x22] + ACK
TCPC_REG_FIFOS + ACK
Setup Read to [0x22] + ACK
0x00 + ACK
0x00 + ACK
0x00 + NAK
Setup Read to [0x22] + ACK
0x00 + ACK
0x00 + ACK
0x00 + ACK
0x00 + NAK
Setup Write to [0x22] + ACK -> read interrupt reg
TCPC_REG_INTERRUPT + ACK
Setup Read to [0x22] + ACK
0x00 + NAK
Setup Write to [0x22] + ACK -> read interruptA reg
TCPC_REG_INTERRUPTA + ACK
Setup Read to [0x22] + ACK
0x00 + NAK
Setup Write to [0x22] + ACK -> read interruptB reg
TCPC_REG_INTERRUPTB + ACK
Setup Read to [0x22] + ACK
0x00 + NAK
Setup Write to [0x22] + ACK
TCPC_REG_STATUS1 + ACK
Setup Read to [0x22] + ACK
0x28 + NAK
Setup Write to [0x22] + ACK
TCPC_REG_FIFOS + ACK
Setup Read to [0x22] + ACK
0x00 + ACK
0x00 + ACK
0x00 + NAK
Setup Read to [0x22] + ACK
0x00 + ACK
0x00 + ACK
0x00 + ACK
0x00 + NAK
Setup Write to [0x22] + ACK -> read interrupt reg
TCPC_REG_INTERRUPT + ACK
Setup Read to [0x22] + ACK
0x00 + NAK
Setup Write to [0x22] + ACK -> read interruptA reg
TCPC_REG_INTERRUPTA + ACK
Setup Read to [0x22] + ACK
0x00 + NAK
Setup Write to [0x22] + ACK -> read interruptB reg
TCPC_REG_INTERRUPTB + ACK
Setup Read to [0x22] + ACK
0x00 + NAK
Setup Write to [0x22] + ACK
TCPC_REG_STATUS1 + ACK
Setup Read to [0x22] + ACK
0x28 + NAK
Setup Write to [0x22] + ACK
TCPC_REG_FIFOS + ACK
Setup Read to [0x22] + ACK
0x00 + ACK
0x00 + ACK
0x00 + NAK
Setup Read to [0x22] + ACK
0x00 + ACK
0x00 + ACK
0x00 + ACK
0x00 + NAK
Setup Write to [0x22] + ACK -> read interrupt reg
TCPC_REG_INTERRUPT + ACK
Setup Read to [0x22] + ACK
0x00 + NAK
Setup Write to [0x22] + ACK -> read interruptA reg
TCPC_REG_INTERRUPTA + ACK
Setup Read to [0x22] + ACK
0x00 + NAK
Setup Write to [0x22] + ACK -> read interruptB reg
TCPC_REG_INTERRUPTB + ACK
Setup Read to [0x22] + ACK
0x00 + NAK
Setup Write to [0x22] + ACK
TCPC_REG_STATUS1 + ACK
Setup Read to [0x22] + ACK
0x28 + NAK
Setup Write to [0x22] + ACK
TCPC_REG_FIFOS + ACK
Setup Read to [0x22] + ACK
0x00 + ACK
0x00 + ACK
0x00 + NAK
Setup Read to [0x22] + ACK
0x00 + ACK
0x00 + ACK
0x00 + ACK
0x00 + NAK
Setup Write to [0x22] + ACK -> read interrupt reg
TCPC_REG_INTERRUPT + ACK
Setup Read to [0x22] + ACK
0x00 + NAK
Setup Write to [0x22] + ACK -> read interruptA reg
TCPC_REG_INTERRUPTA + ACK
Setup Read to [0x22] + ACK
0x00 + NAK
Setup Write to [0x22] + ACK -> read interruptB reg
TCPC_REG_INTERRUPTB + ACK
Setup Read to [0x22] + ACK
0x00 + NAK
Setup Write to [0x22] + ACK
TCPC_REG_STATUS1 + ACK
Setup Read to [0x22] + ACK
0x28 + NAK
Setup Write to [0x22] + ACK
TCPC_REG_FIFOS + ACK
Setup Read to [0x22] + ACK
0x00 + ACK
0x00 + ACK
0x00 + NAK
Setup Read to [0x22] + ACK
0x00 + ACK
0x00 + ACK
0x00 + ACK
0x00 + NAK
Setup Write to [0x22] + ACK -> read interrupt reg
TCPC_REG_INTERRUPT + ACK
Setup Read to [0x22] + ACK
0x00 + NAK
Setup Write to [0x22] + ACK -> read interruptA reg
TCPC_REG_INTERRUPTA + ACK
Setup Read to [0x22] + ACK
0x00 + NAK
Setup Write to [0x22] + ACK -> read interruptB reg
TCPC_REG_INTERRUPTB + ACK
Setup Read to [0x22] + ACK
0x00 + NAK
Setup Write to [0x22] + ACK
TCPC_REG_STATUS1 + ACK
Setup Read to [0x22] + ACK
0x28 + NAK
Setup Write to [0x22] + ACK
TCPC_REG_FIFOS + ACK
Setup Read to [0x22] + ACK
0x00 + ACK
0x00 + ACK
0x00 + NAK
Setup Read to [0x22] + ACK
0x00 + ACK
0x00 + ACK
0x00 + ACK
0x00 + NAK
Setup Write to [0x22] + ACK -> read interrupt reg
TCPC_REG_INTERRUPT + ACK
Setup Read to [0x22] + ACK
0x00 + NAK
Setup Write to [0x22] + ACK -> read interruptA reg
TCPC_REG_INTERRUPTA + ACK
Setup Read to [0x22] + ACK
0x00 + NAK
Setup Write to [0x22] + ACK -> read interruptB reg
TCPC_REG_INTERRUPTB + ACK
Setup Read to [0x22] + ACK
0x00 + NAK
Setup Write to [0x22] + ACK
TCPC_REG_STATUS1 + ACK
Setup Read to [0x22] + ACK
0x28 + NAK
Setup Write to [0x22] + ACK
TCPC_REG_FIFOS + ACK
Setup Read to [0x22] + ACK
0x00 + ACK
0x00 + ACK
0x00 + NAK
Setup Read to [0x22] + ACK
0x00 + ACK
0x00 + ACK
0x00 + ACK
0x00 + NAK
Setup Write to [0x22] + ACK -> read interrupt reg
TCPC_REG_INTERRUPT + ACK
Setup Read to [0x22] + ACK
0x00 + NAK
Setup Write to [0x22] + ACK -> read interruptA reg
TCPC_REG_INTERRUPTA + ACK
Setup Read to [0x22] + ACK
0x00 + NAK
Setup Write to [0x22] + ACK -> read interruptB reg
TCPC_REG_INTERRUPTB + ACK
Setup Read to [0x22] + ACK
0x00 + NAK
Setup Write to [0x22] + ACK
TCPC_REG_STATUS1 + ACK
Setup Read to [0x22] + ACK
0x28 + NAK
Setup Write to [0x22] + ACK
TCPC_REG_FIFOS + ACK
Setup Read to [0x22] + ACK
0x00 + ACK
0x00 + ACK
0x00 + NAK
Setup Read to [0x22] + ACK
0x00 + ACK
0x00 + ACK
0x00 + ACK
0x00 + NAK
Setup Write to [0x22] + ACK -> read interrupt reg
TCPC_REG_INTERRUPT + ACK
Setup Read to [0x22] + ACK
0x00 + NAK
Setup Write to [0x22] + ACK -> read interruptA reg
TCPC_REG_INTERRUPTA + ACK
Setup Read to [0x22] + ACK
0x00 + NAK
Setup Write to [0x22] + ACK -> read interruptB reg
TCPC_REG_INTERRUPTB + ACK
Setup Read to [0x22] + ACK
0x00 + NAK
Setup Write to [0x22] + ACK
TCPC_REG_STATUS1 + ACK
Setup Read to [0x22] + ACK
0x28 + NAK
Setup Write to [0x22] + ACK
TCPC_REG_FIFOS + ACK
Setup Read to [0x22] + ACK
0x00 + ACK
0x00 + ACK
0x00 + NAK
Setup Read to [0x22] + ACK
0x00 + ACK
0x00 + ACK
0x00 + ACK
0x00 + NAK
Setup Write to [0x22] + ACK -> read interrupt reg
TCPC_REG_INTERRUPT + ACK
Setup Read to [0x22] + ACK
0x00 + NAK
Setup Write to [0x22] + ACK -> read interruptA reg
TCPC_REG_INTERRUPTA + ACK
Setup Read to [0x22] + ACK
0x00 + NAK
Setup Write to [0x22] + ACK -> read interruptB reg
TCPC_REG_INTERRUPTB + ACK
Setup Read to [0x22] + ACK
0x00 + NAK
Setup Write to [0x22] + ACK
TCPC_REG_STATUS1 + ACK
Setup Read to [0x22] + ACK
0x28 + NAK
Setup Write to [0x22] + ACK
TCPC_REG_FIFOS + ACK
Setup Read to [0x22] + ACK
0x00 + ACK
0x00 + ACK
0x00 + NAK
Setup Read to [0x22] + ACK
0x00 + ACK
0x00 + ACK
0x00 + ACK
0x00 + NAK
Setup Write to [0x22] + ACK -> read interrupt reg
TCPC_REG_INTERRUPT + ACK
Setup Read to [0x22] + ACK
0x00 + NAK
Setup Write to [0x22] + ACK -> read interruptA reg
TCPC_REG_INTERRUPTA + ACK
Setup Read to [0x22] + ACK
0x00 + NAK
Setup Write to [0x22] + ACK -> read interruptB reg
TCPC_REG_INTERRUPTB + ACK
Setup Read to [0x22] + ACK
0x00 + NAK
Setup Write to [0x22] + ACK
TCPC_REG_STATUS1 + ACK
Setup Read to [0x22] + ACK
0x28 + NAK
Setup Write to [0x22] + ACK
TCPC_REG_FIFOS + ACK
Setup Read to [0x22] + ACK
0x00 + ACK
0x00 + ACK
0x00 + NAK
Setup Read to [0x22] + ACK
0x00 + ACK
0x00 + ACK
0x00 + ACK
0x00 + NAK
Setup Write to [0x22] + ACK -> read interrupt reg
TCPC_REG_INTERRUPT + ACK
Setup Read to [0x22] + ACK
0x00 + NAK
Setup Write to [0x22] + ACK -> read interruptA reg
TCPC_REG_INTERRUPTA + ACK
Setup Read to [0x22] + ACK
0x00 + NAK
Setup Write to [0x22] + ACK -> read interruptB reg
TCPC_REG_INTERRUPTB + ACK
Setup Read to [0x22] + ACK
0x00 + NAK
Setup Write to [0x22] + ACK
TCPC_REG_STATUS1 + ACK
Setup Read to [0x22] + ACK
0x28 + NAK
Setup Write to [0x22] + ACK
TCPC_REG_FIFOS + ACK
Setup Read to [0x22] + ACK
0x00 + ACK
0x00 + ACK
0x00 + NAK
Setup Read to [0x22] + ACK
0x00 + ACK
0x00 + ACK
0x00 + ACK
0x00 + NAK
Setup Write to [0x22] + ACK -> read interrupt reg
TCPC_REG_INTERRUPT + ACK
Setup Read to [0x22] + ACK
0x00 + NAK
Setup Write to [0x22] + ACK -> read interruptA reg
TCPC_REG_INTERRUPTA + ACK
Setup Read to [0x22] + ACK
0x00 + NAK
Setup Write to [0x22] + ACK -> read interruptB reg
TCPC_REG_INTERRUPTB + ACK
Setup Read to [0x22] + ACK
0x00 + NAK
Setup Write to [0x22] + ACK
TCPC_REG_STATUS1 + ACK
Setup Read to [0x22] + ACK
0x28 + NAK
Setup Write to [0x22] + ACK
TCPC_REG_FIFOS + ACK
Setup Read to [0x22] + ACK
0x00 + ACK
0x00 + ACK
0x00 + NAK
Setup Read to [0x22] + ACK
0x00 + ACK
0x00 + ACK
0x00 + ACK
0x00 + NAK
Setup Write to [0x22] + ACK -> read interrupt reg
TCPC_REG_INTERRUPT + ACK
Setup Read to [0x22] + ACK
0x00 + NAK
Setup Write to [0x22] + ACK -> read interruptA reg
TCPC_REG_INTERRUPTA + ACK
Setup Read to [0x22] + ACK
0x00 + NAK
Setup Write to [0x22] + ACK -> read interruptB reg
TCPC_REG_INTERRUPTB + ACK
Setup Read to [0x22] + ACK
0x00 + NAK
Setup Write to [0x22] + ACK
TCPC_REG_STATUS1 + ACK
Setup Read to [0x22] + ACK
0x28 + NAK
Setup Write to [0x22] + ACK
TCPC_REG_FIFOS + ACK
Setup Read to [0x22] + ACK
0x00 + ACK
0x00 + ACK
0x00 + NAK
Setup Read to [0x22] + ACK
0x00 + ACK
0x00 + ACK
0x00 + ACK
0x00 + NAK
Setup Write to [0x22] + ACK -> read interrupt reg
TCPC_REG_INTERRUPT + ACK
Setup Read to [0x22] + ACK
0x00 + NAK
Setup Write to [0x22] + ACK -> read interruptA reg
TCPC_REG_INTERRUPTA + ACK
Setup Read to [0x22] + ACK
0x00 + NAK
Setup Write to [0x22] + ACK -> read interruptB reg
TCPC_REG_INTERRUPTB + ACK
Setup Read to [0x22] + ACK
0x00 + NAK
Setup Write to [0x22] + ACK
TCPC_REG_STATUS1 + ACK
Setup Read to [0x22] + ACK
0x28 + NAK
Setup Write to [0x22] + ACK
TCPC_REG_FIFOS + ACK
Setup Read to [0x22] + ACK
0x00 + ACK
0x00 + ACK
0x00 + NAK
Setup Read to [0x22] + ACK
0x00 + ACK
0x00 + ACK
0x00 + ACK
0x00 + NAK
Setup Write to [0x22] + ACK -> read interrupt reg
TCPC_REG_INTERRUPT + ACK
Setup Read to [0x22] + ACK
0x00 + NAK
Setup Write to [0x22] + ACK -> read interruptA reg
TCPC_REG_INTERRUPTA + ACK
Setup Read to [0x22] + ACK
0x00 + NAK
Setup Write to [0x22] + ACK -> read interruptB reg
TCPC_REG_INTERRUPTB + ACK
Setup Read to [0x22] + ACK
0x00 + NAK
Setup Write to [0x22] + ACK
TCPC_REG_STATUS1 + ACK
Setup Read to [0x22] + ACK
0x28 + NAK
Setup Write to [0x22] + ACK
TCPC_REG_FIFOS + ACK
Setup Read to [0x22] + ACK
0x00 + ACK
0x00 + ACK
0x00 + NAK
Setup Read to [0x22] + ACK
0x00 + ACK
0x00 + ACK
0x00 + ACK
0x00 + NAK
Setup Write to [0x22] + ACK -> read interrupt reg
TCPC_REG_INTERRUPT + ACK
Setup Read to [0x22] + ACK
0x00 + NAK
Setup Write to [0x22] + ACK -> read interruptA reg
TCPC_REG_INTERRUPTA + ACK
Setup Read to [0x22] + ACK
0x00 + NAK
Setup Write to [0x22] + ACK -> read interruptB reg
TCPC_REG_INTERRUPTB + ACK
Setup Read to [0x22] + ACK
0x00 + NAK
Setup Write to [0x22] + ACK
TCPC_REG_STATUS1 + ACK
Setup Read to [0x22] + ACK
0x28 + NAK
Setup Write to [0x22] + ACK
TCPC_REG_FIFOS + ACK
Setup Read to [0x22] + ACK
0x00 + ACK
0x00 + ACK
0x00 + NAK
Setup Read to [0x22] + ACK
0x00 + ACK
0x00 + ACK
0x00 + ACK
0x00 + NAK
Setup Write to [0x22] + ACK -> read interrupt reg
TCPC_REG_INTERRUPT + ACK
Setup Read to [0x22] + ACK
0x00 + NAK
Setup Write to [0x22] + ACK -> read interruptA reg
TCPC_REG_INTERRUPTA + ACK
Setup Read to [0x22] + ACK
0x00 + NAK
Setup Write to [0x22] + ACK -> read interruptB reg
TCPC_REG_INTERRUPTB + ACK
Setup Read to [0x22] + ACK
0x00 + NAK
Setup Write to [0x22] + ACK
TCPC_REG_STATUS1 + ACK
Setup Read to [0x22] + ACK
0x28 + NAK
Setup Write to [0x22] + ACK
TCPC_REG_FIFOS + ACK
Setup Read to [0x22] + ACK
0x00 + ACK
0x00 + ACK
0x00 + NAK
Setup Read to [0x22] + ACK
0x00 + ACK
0x00 + ACK
0x00 + ACK
0x00 + NAK
Setup Write to [0x22] + ACK -> read interrupt reg
TCPC_REG_INTERRUPT + ACK
Setup Read to [0x22] + ACK
0x00 + NAK
Setup Write to [0x22] + ACK -> read interruptA reg
TCPC_REG_INTERRUPTA + ACK
Setup Read to [0x22] + ACK
0x00 + NAK
Setup Write to [0x22] + ACK -> read interruptB reg
TCPC_REG_INTERRUPTB + ACK
Setup Read to [0x22] + ACK
0x00 + NAK
Setup Write to [0x22] + ACK
TCPC_REG_STATUS1 + ACK
Setup Read to [0x22] + ACK
0x28 + NAK
Setup Write to [0x22] + ACK
TCPC_REG_FIFOS + ACK
Setup Read to [0x22] + ACK
0x00 + ACK
0x00 + ACK
0x00 + NAK
Setup Read to [0x22] + ACK
0x00 + ACK
0x00 + ACK
0x00 + ACK
0x00 + NAK
Setup Write to [0x22] + ACK -> read interrupt reg
TCPC_REG_INTERRUPT + ACK
Setup Read to [0x22] + ACK
0x00 + NAK
Setup Write to [0x22] + ACK -> read interruptA reg
TCPC_REG_INTERRUPTA + ACK
Setup Read to [0x22] + ACK
0x00 + NAK
Setup Write to [0x22] + ACK -> read interruptB reg
TCPC_REG_INTERRUPTB + ACK
Setup Read to [0x22] + ACK
0x00 + NAK
Setup Write to [0x22] + ACK
TCPC_REG_STATUS1 + ACK
Setup Read to [0x22] + ACK
0x28 + NAK
Setup Write to [0x22] + ACK
TCPC_REG_FIFOS + ACK
Setup Read to [0x22] + ACK
0x00 + ACK
0x00 + ACK
0x00 + NAK
Setup Read to [0x22] + ACK
0x00 + ACK
0x00 + ACK
0x00 + ACK
0x00 + NAK
Setup Write to [0x22] + ACK -> read interrupt reg
TCPC_REG_INTERRUPT + ACK
Setup Read to [0x22] + ACK
0x00 + NAK
Setup Write to [0x22] + ACK -> read interruptA reg
TCPC_REG_INTERRUPTA + ACK
Setup Read to [0x22] + ACK
0x00 + NAK
Setup Write to [0x22] + ACK -> read interruptB reg
TCPC_REG_INTERRUPTB + ACK
Setup Read to [0x22] + ACK
0x00 + NAK
Setup Write to [0x22] + ACK
TCPC_REG_STATUS1 + ACK
Setup Read to [0x22] + ACK
0x28 + NAK
Setup Write to [0x22] + ACK
TCPC_REG_FIFOS + ACK
Setup Read to [0x22] + ACK
0x00 + ACK
0x00 + ACK
0x00 + NAK
Setup Read to [0x22] + ACK
0x00 + ACK
0x00 + ACK
0x00 + ACK
0x00 + NAK
Setup Write to [0x22] + ACK -> read interrupt reg
TCPC_REG_INTERRUPT + ACK
Setup Read to [0x22] + ACK
0x00 + NAK
Setup Write to [0x22] + ACK -> read interruptA reg
TCPC_REG_INTERRUPTA + ACK
Setup Read to [0x22] + ACK
0x00 + NAK
Setup Write to [0x22] + ACK -> read interruptB reg
TCPC_REG_INTERRUPTB + ACK
Setup Read to [0x22] + ACK
0x00 + NAK
Setup Write to [0x22] + ACK
TCPC_REG_STATUS1 + ACK
Setup Read to [0x22] + ACK
0x28 + NAK
Setup Write to [0x22] + ACK
TCPC_REG_FIFOS + ACK
Setup Read to [0x22] + ACK
0x00 + ACK
0x00 + ACK
0x00 + NAK
Setup Read to [0x22] + ACK
0x00 + ACK
0x00 + ACK
0x00 + ACK
0x00 + NAK
Setup Write to [0x22] + ACK -> read interrupt reg
TCPC_REG_INTERRUPT + ACK
Setup Read to [0x22] + ACK
0x00 + NAK
Setup Write to [0x22] + ACK -> read interruptA reg
TCPC_REG_INTERRUPTA + ACK
Setup Read to [0x22] + ACK
0x00 + NAK
Setup Write to [0x22] + ACK -> read interruptB reg
TCPC_REG_INTERRUPTB + ACK
Setup Read to [0x22] + ACK
0x00 + NAK
Setup Write to [0x22] + ACK
TCPC_REG_STATUS1 + ACK
Setup Read to [0x22] + ACK
0x28 + NAK
Setup Write to [0x22] + ACK
TCPC_REG_FIFOS + ACK
Setup Read to [0x22] + ACK
0x00 + ACK
0x00 + ACK
0x00 + NAK
Setup Read to [0x22] + ACK
0x00 + ACK
0x00 + ACK
0x00 + ACK
0x00 + NAK
Setup Write to [0x22] + ACK -> read interrupt reg
TCPC_REG_INTERRUPT + ACK
Setup Read to [0x22] + ACK
0x00 + NAK
Setup Write to [0x22] + ACK -> read interruptA reg
TCPC_REG_INTERRUPTA + ACK
Setup Read to [0x22] + ACK
0x00 + NAK
Setup Write to [0x22] + ACK -> read interruptB reg
TCPC_REG_INTERRUPTB + ACK
Setup Read to [0x22] + ACK
0x00 + NAK
Setup Write to [0x22] + ACK
TCPC_REG_STATUS1 + ACK
Setup Read to [0x22] + ACK
0x28 + NAK
Setup Write to [0x22] + ACK
TCPC_REG_FIFOS + ACK
Setup Read to [0x22] + ACK
0x00 + ACK
0x00 + ACK
0x00 + NAK
Setup Read to [0x22] + ACK
0x00 + ACK
0x00 + ACK
0x00 + ACK
0x00 + NAK
Setup Write to [0x22] + ACK -> read interrupt reg
TCPC_REG_INTERRUPT + ACK
Setup Read to [0x22] + ACK
0x00 + NAK
Setup Write to [0x22] + ACK -> read interruptA reg
TCPC_REG_INTERRUPTA + ACK
Setup Read to [0x22] + ACK
0x00 + NAK
Setup Write to [0x22] + ACK -> read interruptB reg
TCPC_REG_INTERRUPTB + ACK
Setup Read to [0x22] + ACK
0x00 + NAK
Setup Write to [0x22] + ACK
TCPC_REG_STATUS1 + ACK
Setup Read to [0x22] + ACK
0x28 + NAK
Setup Write to [0x22] + ACK
TCPC_REG_FIFOS + ACK
Setup Read to [0x22] + ACK
0x00 + ACK
0x00 + ACK
0x00 + NAK
Setup Read to [0x22] + ACK
0x00 + ACK
0x00 + ACK
0x00 + ACK
0x00 + NAK
Setup Write to [0x22] + ACK -> read interrupt reg
TCPC_REG_INTERRUPT + ACK
Setup Read to [0x22] + ACK
0x00 + NAK
Setup Write to [0x22] + ACK -> read interruptA reg
TCPC_REG_INTERRUPTA + ACK
Setup Read to [0x22] + ACK
0x00 + NAK
Setup Write to [0x22] + ACK -> read interruptB reg
TCPC_REG_INTERRUPTB + ACK
Setup Read to [0x22] + ACK
0x00 + NAK
Setup Write to [0x22] + ACK
TCPC_REG_STATUS1 + ACK
Setup Read to [0x22] + ACK
0x28 + NAK
Setup Write to [0x22] + ACK
TCPC_REG_FIFOS + ACK
Setup Read to [0x22] + ACK
0x00 + ACK
0x00 + ACK
0x00 + NAK
Setup Read to [0x22] + ACK
0x00 + ACK
0x00 + ACK
0x00 + ACK
0x00 + NAK
Setup Write to [0x22] + ACK -> read interrupt reg
TCPC_REG_INTERRUPT + ACK
Setup Read to [0x22] + ACK
0x00 + NAK
Setup Write to [0x22] + ACK -> read interruptA reg
TCPC_REG_INTERRUPTA + ACK
Setup Read to [0x22] + ACK
0x00 + NAK
Setup Write to [0x22] + ACK -> read interruptB reg
TCPC_REG_INTERRUPTB + ACK
Setup Read to [0x22] + ACK
