Time [s], Analyzer Name, Decoded Protocol Result
0.392381250000000,I2C,Setup Write to [0x22] + ACK
0.392393083333333,I2C,0x0C + ACK
0.392403625000000,I2C,0x01 + ACK
0.392423625000000,I2C,Setup Write to [0x22] + ACK
0.392435416666667,I2C,0x09 + ACK
0.392454500000000,I2C,Setup Read to [0x22] + ACK
0.392465041666667,I2C,0x06 + NAK
0.392484166666667,I2C,Setup Write to [0x22] + ACK
0.392496000000000,I2C,0x09 + ACK
0.392506500000000,I2C,0x07 + ACK
0.392526583333333,I2C,Setup Write to [0x22] + ACK
0.392538375000000,I2C,0x0A + ACK
0.392548916666667,I2C,0xE4 + ACK
0.392568916666667,I2C,Setup Write to [0x22] + ACK
0.392580750000000,I2C,0x0E + ACK
0.392591291666667,I2C,0xE2 + ACK
0.392611333333333,I2C,Setup Write to [0x22] + ACK
0.392623125000000,I2C,0x0F + ACK
0.392633666666667,I2C,0xFE + ACK
0.392653625000000,I2C,Setup Write to [0x22] + ACK
0.392665458333333,I2C,0x06 + ACK
0.392684541666667,I2C,Setup Read to [0x22] + ACK
0.392695041666667,I2C,0x24 + NAK
0.392714125000000,I2C,Setup Write to [0x22] + ACK
0.392725958333333,I2C,0x06 + ACK
0.392736458333333,I2C,0x00 + ACK
0.392756958333333,I2C,Setup Write to [0x22] + ACK
0.392768791666667,I2C,0x02 + ACK
0.392787875000000,I2C,Setup Read to [0x22] + ACK
0.392798375000000,I2C,0x03 + NAK
0.392818250000000,I2C,Setup Write to [0x22] + ACK
0.392830083333333,I2C,0x02 + ACK
0.392840583333333,I2C,0x04 + ACK
0.392860583333333,I2C,Setup Write to [0x22] + ACK
0.392872416666667,I2C,0x03 + ACK
0.392891458333333,I2C,Setup Read to [0x22] + ACK
0.392902000000000,I2C,0x20 + NAK
0.392921250000000,I2C,Setup Write to [0x22] + ACK
0.392933041666667,I2C,0x03 + ACK
0.392943583333333,I2C,0x01 + ACK
0.392964541666667,I2C,Setup Write to [0x22] + ACK
0.392976333333333,I2C,0x02 + ACK
0.392995416666667,I2C,Setup Read to [0x22] + ACK
0.393005958333333,I2C,0x04 + NAK
0.393025041666667,I2C,Setup Write to [0x22] + ACK
0.393036833333333,I2C,0x02 + ACK
0.393047375000000,I2C,0x00 + ACK
0.393067625000000,I2C,Setup Write to [0x22] + ACK
0.393079416666667,I2C,0x0B + ACK
0.393089958333333,I2C,0x0F + ACK
0.393112041666667,I2C,Setup Write to [0x22] + ACK
0.393123833333333,I2C,0x02 + ACK
0.393142916666667,I2C,Setup Read to [0x22] + ACK
0.393153416666667,I2C,0x00 + NAK
0.393172625000000,I2C,Setup Write to [0x22] + ACK
0.393184416666667,I2C,0x02 + ACK
0.393194958333333,I2C,0x00 + ACK
0.393214916666667,I2C,Setup Write to [0x22] + ACK
0.393226708333333,I2C,0x0A + ACK
0.393245791666667,I2C,Setup Read to [0x22] + ACK
0.393256291666667,I2C,0xE4 + NAK
0.393276375000000,I2C,Setup Write to [0x22] + ACK
0.393288208333333,I2C,0x0A + ACK
0.393298708333333,I2C,0x00 + ACK
0.393319083333333,I2C,Setup Write to [0x22] + ACK
0.393330875000000,I2C,0x03 + ACK
0.393349958333333,I2C,Setup Read to [0x22] + ACK
0.393360458333333,I2C,0x01 + NAK
0.393379625000000,I2C,Setup Write to [0x22] + ACK
0.393391416666667,I2C,0x03 + ACK
0.393401958333333,I2C,0x00 + ACK
0.393424125000000,I2C,Setup Write to [0x22] + ACK
0.393435958333333,I2C,0x02 + ACK
0.393455041666667,I2C,Setup Read to [0x22] + ACK
0.393465541666667,I2C,0x00 + NAK
0.393484750000000,I2C,Setup Write to [0x22] + ACK
0.393496541666667,I2C,0x02 + ACK
0.393507041666667,I2C,0x00 + ACK
0.393527041666667,I2C,Setup Write to [0x22] + ACK
0.393538833333333,I2C,0x0A + ACK
0.393557916666667,I2C,Setup Read to [0x22] + ACK
0.393568416666667,I2C,0x00 + NAK
0.393587500000000,I2C,Setup Write to [0x22] + ACK
0.393599291666667,I2C,0x0A + ACK
0.393609833333333,I2C,0x00 + ACK
0.393630208333333,I2C,Setup Write to [0x22] + ACK
0.393642000000000,I2C,0x03 + ACK
0.393661083333333,I2C,Setup Read to [0x22] + ACK
0.393671583333333,I2C,0x00 + NAK
0.393690750000000,I2C,Setup Write to [0x22] + ACK
0.393702541666667,I2C,0x03 + ACK
0.393713083333333,I2C,0x00 + ACK
0.393733750000000,I2C,Setup Write to [0x22] + ACK
0.393745583333333,I2C,0x06 + ACK
0.393764666666667,I2C,Setup Read to [0x22] + ACK
0.393775166666667,I2C,0x00 + NAK
0.393794833333333,I2C,Setup Write to [0x22] + ACK
0.393806625000000,I2C,0x06 + ACK
0.393817125000000,I2C,0x04 + ACK
0.393837708333333,I2C,Setup Write to [0x22] + ACK
0.393849541666667,I2C,0x08 + ACK
0.393868583333333,I2C,Setup Read to [0x22] + ACK
0.393879125000000,I2C,0x02 + NAK
0.393898166666667,I2C,Setup Write to [0x22] + ACK
0.393909958333333,I2C,0x08 + ACK
0.393920500000000,I2C,0x00 + ACK
0.393940458333333,I2C,Setup Write to [0x22] + ACK
0.393952291666667,I2C,0x02 + ACK
0.393971333333333,I2C,Setup Read to [0x22] + ACK
0.393981875000000,I2C,0x00 + NAK
0.394001041666667,I2C,Setup Write to [0x22] + ACK
0.394012833333333,I2C,0x02 + ACK
0.394023375000000,I2C,0x03 + ACK
0.398261708333333,I2C,Setup Write to [0x22] + ACK
0.398273541666667,I2C,0x42 + ACK
0.398292583333333,I2C,Setup Read to [0x22] + ACK
0.398303125000000,I2C,0x00 + NAK
0.398322083333333,I2C,Setup Write to [0x22] + ACK
0.398333916666667,I2C,0x3E + ACK
0.398353000000000,I2C,Setup Read to [0x22] + ACK
0.398363500000000,I2C,0x00 + NAK
0.398382458333333,I2C,Setup Write to [0x22] + ACK
0.398394291666667,I2C,0x3F + ACK
0.398413333333333,I2C,Setup Read to [0x22] + ACK
0.398423875000000,I2C,0x00 + NAK
0.398446458333333,I2C,Setup Write to [0x22] + ACK
0.398458250000000,I2C,0x41 + ACK
0.398477333333333,I2C,Setup Read to [0x22] + ACK
0.398487833333333,I2C,0x28 + NAK
0.398507416666667,I2C,Setup Write to [0x22] + ACK
0.398519208333333,I2C,0x43 + ACK
0.398539250000000,I2C,Setup Read to [0x22] + ACK
0.398549750000000,I2C,0x00 + ACK
0.398560291666667,I2C,0x00 + ACK
0.398570791666667,I2C,0x00 + NAK
0.398591791666667,I2C,Setup Read to [0x22] + ACK
0.398602333333333,I2C,0x00 + ACK
0.398612833333333,I2C,0x00 + ACK
0.398623333333333,I2C,0x00 + ACK
0.398633875000000,I2C,0x00 + NAK
0.398661291666667,I2C,Setup Write to [0x22] + ACK
0.398673125000000,I2C,0x06 + ACK
0.398692166666667,I2C,Setup Read to [0x22] + ACK
0.398702708333333,I2C,0x04 + NAK
0.398721750000000,I2C,Setup Write to [0x22] + ACK
0.398733583333333,I2C,0x06 + ACK
0.398744083333333,I2C,0x40 + ACK
0.398764333333333,I2C,Setup Write to [0x22] + ACK
0.398776166666667,I2C,0x09 + ACK
0.398795208333333,I2C,Setup Read to [0x22] + ACK
0.398805750000000,I2C,0x07 + NAK
0.398824791666667,I2C,Setup Write to [0x22] + ACK
0.398836625000000,I2C,0x09 + ACK
0.398847125000000,I2C,0x40 + ACK
0.403269458333333,I2C,Setup Write to [0x22] + ACK
0.403281291666667,I2C,0x42 + ACK
0.403300333333333,I2C,Setup Read to [0x22] + ACK
0.403310875000000,I2C,0x00 + NAK
0.403329833333333,I2C,Setup Write to [0x22] + ACK
0.403341666666667,I2C,0x3E + ACK
0.403360750000000,I2C,Setup Read to [0x22] + ACK
0.403371250000000,I2C,0x08 + NAK
0.403390208333333,I2C,Setup Write to [0x22] + ACK
0.403402000000000,I2C,0x3F + ACK
0.403421083333333,I2C,Setup Read to [0x22] + ACK
0.403431625000000,I2C,0x00 + NAK
0.403454166666667,I2C,Setup Write to [0x22] + ACK
0.403466000000000,I2C,0x41 + ACK
0.403485041666667,I2C,Setup Read to [0x22] + ACK
0.403495583333333,I2C,0x28 + NAK
0.403515125000000,I2C,Setup Write to [0x22] + ACK
0.403526958333333,I2C,0x43 + ACK
0.403547000000000,I2C,Setup Read to [0x22] + ACK
0.403557500000000,I2C,0x00 + ACK
0.403568000000000,I2C,0x00 + ACK
0.403578541666667,I2C,0x00 + NAK
0.403599541666667,I2C,Setup Read to [0x22] + ACK
0.403610041666667,I2C,0x00 + ACK
0.403620541666667,I2C,0x00 + ACK
0.403631083333333,I2C,0x00 + ACK
0.403641583333333,I2C,0x00 + NAK
0.408276541666667,I2C,Setup Write to [0x22] + ACK
0.408288333333333,I2C,0x42 + ACK
0.408307416666667,I2C,Setup Read to [0x22] + ACK
0.408317916666667,I2C,0x00 + NAK
0.408336916666667,I2C,Setup Write to [0x22] + ACK
0.408348708333333,I2C,0x3E + ACK
0.408367791666667,I2C,Setup Read to [0x22] + ACK
0.408378291666667,I2C,0x00 + NAK
0.408397250000000,I2C,Setup Write to [0x22] + ACK
0.408409083333333,I2C,0x3F + ACK
0.408428125000000,I2C,Setup Read to [0x22] + ACK
0.408438666666667,I2C,0x00 + NAK
0.408461208333333,I2C,Setup Write to [0x22] + ACK
0.408473041666667,I2C,0x41 + ACK
0.408492083333333,I2C,Setup Read to [0x22] + ACK
0.408502625000000,I2C,0x28 + NAK
0.408522166666667,I2C,Setup Write to [0x22] + ACK
0.408534000000000,I2C,0x43 + ACK
0.408554000000000,I2C,Setup Read to [0x22] + ACK
0.408564541666667,I2C,0x00 + ACK
0.408575041666667,I2C,0x00 + ACK
0.408585583333333,I2C,0x00 + NAK
0.408606583333333,I2C,Setup Read to [0x22] + ACK
0.408617083333333,I2C,0x00 + ACK
0.408627625000000,I2C,0x00 + ACK
0.408638125000000,I2C,0x00 + ACK
0.408648625000000,I2C,0x00 + NAK
0.413283541666667,I2C,Setup Write to [0x22] + ACK
0.413295375000000,I2C,0x42 + ACK
0.413314416666667,I2C,Setup Read to [0x22] + ACK
0.413324958333333,I2C,0x00 + NAK
0.413343916666667,I2C,Setup Write to [0x22] + ACK
0.413355750000000,I2C,0x3E + ACK
0.413374791666667,I2C,Setup Read to [0x22] + ACK
0.413385333333333,I2C,0x00 + NAK
0.413404291666667,I2C,Setup Write to [0x22] + ACK
0.413416083333333,I2C,0x3F + ACK
0.413435166666667,I2C,Setup Read to [0x22] + ACK
0.413445708333333,I2C,0x00 + NAK
0.413468250000000,I2C,Setup Write to [0x22] + ACK
0.413480083333333,I2C,0x41 + ACK
0.413499125000000,I2C,Setup Read to [0x22] + ACK
0.413509666666667,I2C,0x28 + NAK
0.413529250000000,I2C,Setup Write to [0x22] + ACK
0.413541041666667,I2C,0x43 + ACK
0.413561083333333,I2C,Setup Read to [0x22] + ACK
0.413571583333333,I2C,0x00 + ACK
0.413582125000000,I2C,0x00 + ACK
0.413592625000000,I2C,0x00 + NAK
0.413613625000000,I2C,Setup Read to [0x22] + ACK
0.413624166666667,I2C,0x00 + ACK
0.413634666666667,I2C,0x00 + ACK
0.413645166666667,I2C,0x00 + ACK
0.413655708333333,I2C,0x00 + NAK
0.418290666666667,I2C,Setup Write to [0x22] + ACK
0.418302500000000,I2C,0x42 + ACK
0.418321541666667,I2C,Setup Read to [0x22] + ACK
0.418332083333333,I2C,0x00 + NAK
0.418351041666667,I2C,Setup Write to [0x22] + ACK
0.418362875000000,I2C,0x3E + ACK
0.418381916666667,I2C,Setup Read to [0x22] + ACK
0.418392458333333,I2C,0x00 + NAK
0.418411416666667,I2C,Setup Write to [0x22] + ACK
0.418423208333333,I2C,0x3F + ACK
0.418442291666667,I2C,Setup Read to [0x22] + ACK
0.418452833333333,I2C,0x00 + NAK
0.418475375000000,I2C,Setup Write to [0x22] + ACK
0.418487208333333,I2C,0x41 + ACK
0.418506250000000,I2C,Setup Read to [0x22] + ACK
0.418516791666667,I2C,0x28 + NAK
0.418536333333333,I2C,Setup Write to [0x22] + ACK
0.418548125000000,I2C,0x43 + ACK
0.418568166666667,I2C,Setup Read to [0x22] + ACK
0.418578666666667,I2C,0x00 + ACK
0.418589208333333,I2C,0x00 + ACK
0.418599708333333,I2C,0x00 + NAK
0.418620708333333,I2C,Setup Read to [0x22] + ACK
0.418631208333333,I2C,0x00 + ACK
0.418641750000000,I2C,0x00 + ACK
0.418652250000000,I2C,0x00 + ACK
0.418662750000000,I2C,0x00 + NAK
0.423297208333333,I2C,Setup Write to [0x22] + ACK
0.423309000000000,I2C,0x42 + ACK
0.423328083333333,I2C,Setup Read to [0x22] + ACK
0.423338583333333,I2C,0x00 + NAK
0.423357583333333,I2C,Setup Write to [0x22] + ACK
0.423369375000000,I2C,0x3E + ACK
0.423388458333333,I2C,Setup Read to [0x22] + ACK
0.423398958333333,I2C,0x00 + NAK
0.423417916666667,I2C,Setup Write to [0x22] + ACK
0.423429750000000,I2C,0x3F + ACK
0.423448791666667,I2C,Setup Read to [0x22] + ACK
0.423459333333333,I2C,0x00 + NAK
0.423481916666667,I2C,Setup Write to [0x22] + ACK
0.423493708333333,I2C,0x41 + ACK
0.423512791666667,I2C,Setup Read to [0x22] + ACK
0.423523291666667,I2C,0x28 + NAK
0.423542875000000,I2C,Setup Write to [0x22] + ACK
0.423554666666667,I2C,0x43 + ACK
0.423574708333333,I2C,Setup Read to [0x22] + ACK
0.423585208333333,I2C,0x00 + ACK
0.423595708333333,I2C,0x00 + ACK
0.423606250000000,I2C,0x00 + NAK
0.423627250000000,I2C,Setup Read to [0x22] + ACK
0.423637750000000,I2C,0x00 + ACK
0.423648291666667,I2C,0x00 + ACK
0.423658791666667,I2C,0x00 + ACK
0.423669291666667,I2C,0x00 + NAK
0.428303250000000,I2C,Setup Write to [0x22] + ACK
0.428315041666667,I2C,0x42 + ACK
0.428334125000000,I2C,Setup Read to [0x22] + ACK
0.428344625000000,I2C,0x00 + NAK
0.428363625000000,I2C,Setup Write to [0x22] + ACK
0.428375416666667,I2C,0x3E + ACK
0.428394458333333,I2C,Setup Read to [0x22] + ACK
0.428405000000000,I2C,0x00 + NAK
0.428423958333333,I2C,Setup Write to [0x22] + ACK
0.428435750000000,I2C,0x3F + ACK
0.428454833333333,I2C,Setup Read to [0x22] + ACK
0.428465333333333,I2C,0x00 + NAK
0.428487916666667,I2C,Setup Write to [0x22] + ACK
0.428499708333333,I2C,0x41 + ACK
0.428518750000000,I2C,Setup Read to [0x22] + ACK
0.428529291666667,I2C,0x28 + NAK
0.428548833333333,I2C,Setup Write to [0x22] + ACK
0.428560625000000,I2C,0x43 + ACK
0.428580666666667,I2C,Setup Read to [0x22] + ACK
0.428591166666667,I2C,0x00 + ACK
0.428601666666667,I2C,0x00 + ACK
0.428612208333333,I2C,0x00 + NAK
0.428633208333333,I2C,Setup Read to [0x22] + ACK
0.428643708333333,I2C,0x00 + ACK
0.428654208333333,I2C,0x00 + ACK
0.428664708333333,I2C,0x00 + ACK
0.428675250000000,I2C,0x00 + NAK
0.433309333333333,I2C,Setup Write to [0x22] + ACK
0.433321125000000,I2C,0x42 + ACK
0.433340208333333,I2C,Setup Read to [0x22] + ACK
0.433350708333333,I2C,0x00 + NAK
0.433369666666667,I2C,Setup Write to [0x22] + ACK
0.433381500000000,I2C,0x3E + ACK
0.433400541666667,I2C,Setup Read to [0x22] + ACK
0.433411083333333,I2C,0x00 + NAK
0.433430041666667,I2C,Setup Write to [0x22] + ACK
0.433441833333333,I2C,0x3F + ACK
0.433460875000000,I2C,Setup Read to [0x22] + ACK
0.433471416666667,I2C,0x00 + NAK
0.433493958333333,I2C,Setup Write to [0x22] + ACK
0.433505791666667,I2C,0x41 + ACK
0.433524833333333,I2C,Setup Read to [0x22] + ACK
0.433535333333333,I2C,0x28 + NAK
0.433554916666667,I2C,Setup Write to [0x22] + ACK
0.433566708333333,I2C,0x43 + ACK
0.433586750000000,I2C,Setup Read to [0x22] + ACK
0.433597250000000,I2C,0x00 + ACK
0.433607750000000,I2C,0x00 + ACK
0.433618291666667,I2C,0x00 + NAK
0.433639291666667,I2C,Setup Read to [0x22] + ACK
0.433649791666667,I2C,0x00 + ACK
0.433660333333333,I2C,0x00 + ACK
0.433670833333333,I2C,0x00 + ACK
0.433681333333333,I2C,0x00 + NAK
0.438315958333333,I2C,Setup Write to [0x22] + ACK
0.438327750000000,I2C,0x42 + ACK
0.438346833333333,I2C,Setup Read to [0x22] + ACK
0.438357333333333,I2C,0x00 + NAK
0.438376333333333,I2C,Setup Write to [0x22] + ACK
0.438388125000000,I2C,0x3E + ACK
0.438407208333333,I2C,Setup Read to [0x22] + ACK
0.438417708333333,I2C,0x00 + NAK
0.438436666666667,I2C,Setup Write to [0x22] + ACK
0.438448500000000,I2C,0x3F + ACK
0.438467541666667,I2C,Setup Read to [0x22] + ACK
0.438478083333333,I2C,0x00 + NAK
0.438500625000000,I2C,Setup Write to [0x22] + ACK
0.438512458333333,I2C,0x41 + ACK
0.438531500000000,I2C,Setup Read to [0x22] + ACK
0.438542041666667,I2C,0x28 + NAK
0.438561583333333,I2C,Setup Write to [0x22] + ACK
0.438573416666667,I2C,0x43 + ACK
0.438593416666667,I2C,Setup Read to [0x22] + ACK
0.438603958333333,I2C,0x00 + ACK
0.438614458333333,I2C,0x00 + ACK
0.438624958333333,I2C,0x00 + NAK
0.438646000000000,I2C,Setup Read to [0x22] + ACK
0.438656500000000,I2C,0x00 + ACK
0.438667000000000,I2C,0x00 + ACK
0.438677541666667,I2C,0x00 + ACK
0.438688041666667,I2C,0x00 + NAK
0.443322916666667,I2C,Setup Write to [0x22] + ACK
0.443334708333333,I2C,0x42 + ACK
0.443353791666667,I2C,Setup Read to [0x22] + ACK
0.443364291666667,I2C,0x00 + NAK
0.443383291666667,I2C,Setup Write to [0x22] + ACK
0.443395083333333,I2C,0x3E + ACK
0.443414166666667,I2C,Setup Read to [0x22] + ACK
0.443424666666667,I2C,0x00 + NAK
0.443443666666667,I2C,Setup Write to [0x22] + ACK
0.443455458333333,I2C,0x3F + ACK
0.443474541666667,I2C,Setup Read to [0x22] + ACK
0.443485041666667,I2C,0x00 + NAK
0.443507625000000,I2C,Setup Write to [0x22] + ACK
0.443519416666667,I2C,0x41 + ACK
0.443538500000000,I2C,Setup Read to [0x22] + ACK
0.443549000000000,I2C,0x28 + NAK
0.443568583333333,I2C,Setup Write to [0x22] + ACK
0.443580416666667,I2C,0x43 + ACK
0.443600416666667,I2C,Setup Read to [0x22] + ACK
0.443610958333333,I2C,0x00 + ACK
0.443621458333333,I2C,0x00 + ACK
0.443631958333333,I2C,0x00 + NAK
0.443652958333333,I2C,Setup Read to [0x22] + ACK
0.443663500000000,I2C,0x00 + ACK
0.443674000000000,I2C,0x00 + ACK
0.443684500000000,I2C,0x00 + ACK
0.443695041666667,I2C,0x00 + NAK
0.448330500000000,I2C,Setup Write to [0x22] + ACK
0.448342291666667,I2C,0x42 + ACK
0.448361375000000,I2C,Setup Read to [0x22] + ACK
0.448371875000000,I2C,0x00 + NAK
0.448390875000000,I2C,Setup Write to [0x22] + ACK
0.448402666666667,I2C,0x3E + ACK
0.448421750000000,I2C,Setup Read to [0x22] + ACK
0.448432250000000,I2C,0x00 + NAK
0.448451208333333,I2C,Setup Write to [0x22] + ACK
0.448463041666667,I2C,0x3F + ACK
0.448482083333333,I2C,Setup Read to [0x22] + ACK
0.448492625000000,I2C,0x00 + NAK
0.448515166666667,I2C,Setup Write to [0x22] + ACK
0.448527000000000,I2C,0x41 + ACK
0.448546041666667,I2C,Setup Read to [0x22] + ACK
0.448556583333333,I2C,0x28 + NAK
0.448576125000000,I2C,Setup Write to [0x22] + ACK
0.448587958333333,I2C,0x43 + ACK
0.448607958333333,I2C,Setup Read to [0x22] + ACK
0.448618500000000,I2C,0x00 + ACK
0.448629000000000,I2C,0x00 + ACK
0.448639541666667,I2C,0x00 + NAK
0.448660541666667,I2C,Setup Read to [0x22] + ACK
0.448671041666667,I2C,0x00 + ACK
0.448681541666667,I2C,0x00 + ACK
0.448692083333333,I2C,0x00 + ACK
0.448702583333333,I2C,0x00 + NAK
0.453337250000000,I2C,Setup Write to [0x22] + ACK
0.453349041666667,I2C,0x42 + ACK
0.453368125000000,I2C,Setup Read to [0x22] + ACK
0.453378625000000,I2C,0x00 + NAK
0.453397625000000,I2C,Setup Write to [0x22] + ACK
0.453409416666667,I2C,0x3E + ACK
0.453428500000000,I2C,Setup Read to [0x22] + ACK
0.453439000000000,I2C,0x00 + NAK
0.453457958333333,I2C,Setup Write to [0x22] + ACK
0.453469791666667,I2C,0x3F + ACK
0.453488833333333,I2C,Setup Read to [0x22] + ACK
0.453499375000000,I2C,0x00 + NAK
0.453521916666667,I2C,Setup Write to [0x22] + ACK
0.453533750000000,I2C,0x41 + ACK
0.453552791666667,I2C,Setup Read to [0x22] + ACK
0.453563333333333,I2C,0x28 + NAK
0.453582916666667,I2C,Setup Write to [0x22] + ACK
0.453594708333333,I2C,0x43 + ACK
0.453614750000000,I2C,Setup Read to [0x22] + ACK
0.453625250000000,I2C,0x00 + ACK
0.453635750000000,I2C,0x00 + ACK
0.453646291666667,I2C,0x00 + NAK
0.453667291666667,I2C,Setup Read to [0x22] + ACK
0.453677791666667,I2C,0x00 + ACK
0.453688333333333,I2C,0x00 + ACK
0.453698833333333,I2C,0x00 + ACK
0.453709333333333,I2C,0x00 + NAK
0.458344375000000,I2C,Setup Write to [0x22] + ACK
0.458356208333333,I2C,0x42 + ACK
0.458375250000000,I2C,Setup Read to [0x22] + ACK
0.458385791666667,I2C,0x00 + NAK
0.458404750000000,I2C,Setup Write to [0x22] + ACK
0.458416583333333,I2C,0x3E + ACK
0.458435625000000,I2C,Setup Read to [0x22] + ACK
0.458446166666667,I2C,0x00 + NAK
0.458465125000000,I2C,Setup Write to [0x22] + ACK
0.458476916666667,I2C,0x3F + ACK
0.458496000000000,I2C,Setup Read to [0x22] + ACK
0.458506500000000,I2C,0x00 + NAK
0.458529083333333,I2C,Setup Write to [0x22] + ACK
0.458540875000000,I2C,0x41 + ACK
0.458559958333333,I2C,Setup Read to [0x22] + ACK
0.458570458333333,I2C,0x28 + NAK
0.458590041666667,I2C,Setup Write to [0x22] + ACK
0.458601833333333,I2C,0x43 + ACK
0.458621875000000,I2C,Setup Read to [0x22] + ACK
0.458632375000000,I2C,0x00 + ACK
0.458642916666667,I2C,0x00 + ACK
0.458653416666667,I2C,0x00 + NAK
0.458674416666667,I2C,Setup Read to [0x22] + ACK
0.458684958333333,I2C,0x00 + ACK
0.458695458333333,I2C,0x00 + ACK
0.458705958333333,I2C,0x00 + ACK
0.458716500000000,I2C,0x00 + NAK
0.463351708333333,I2C,Setup Write to [0x22] + ACK
0.463363541666667,I2C,0x42 + ACK
0.463382583333333,I2C,Setup Read to [0x22] + ACK
0.463393125000000,I2C,0x00 + NAK
0.463412083333333,I2C,Setup Write to [0x22] + ACK
0.463423916666667,I2C,0x3E + ACK
0.463442958333333,I2C,Setup Read to [0x22] + ACK
0.463453500000000,I2C,0x00 + NAK
0.463472458333333,I2C,Setup Write to [0x22] + ACK
0.463484250000000,I2C,0x3F + ACK
0.463503333333333,I2C,Setup Read to [0x22] + ACK
0.463513833333333,I2C,0x00 + NAK
0.463536416666667,I2C,Setup Write to [0x22] + ACK
0.463548250000000,I2C,0x41 + ACK
0.463567291666667,I2C,Setup Read to [0x22] + ACK
0.463577833333333,I2C,0x28 + NAK
0.463597416666667,I2C,Setup Write to [0x22] + ACK
0.463609208333333,I2C,0x43 + ACK
0.463629250000000,I2C,Setup Read to [0x22] + ACK
0.463639750000000,I2C,0x00 + ACK
0.463650250000000,I2C,0x00 + ACK
0.463660791666667,I2C,0x00 + NAK
0.463681791666667,I2C,Setup Read to [0x22] + ACK
0.463692333333333,I2C,0x00 + ACK
0.463702833333333,I2C,0x00 + ACK
0.463713333333333,I2C,0x00 + ACK
0.463723875000000,I2C,0x00 + NAK
0.468358708333333,I2C,Setup Write to [0x22] + ACK
0.468370541666667,I2C,0x42 + ACK
0.468389625000000,I2C,Setup Read to [0x22] + ACK
0.468400125000000,I2C,0x00 + NAK
0.468419125000000,I2C,Setup Write to [0x22] + ACK
0.468430916666667,I2C,0x3E + ACK
0.468450000000000,I2C,Setup Read to [0x22] + ACK
0.468460500000000,I2C,0x00 + NAK
0.468479458333333,I2C,Setup Write to [0x22] + ACK
0.468491291666667,I2C,0x3F + ACK
0.468510333333333,I2C,Setup Read to [0x22] + ACK
0.468520875000000,I2C,0x00 + NAK
0.468543458333333,I2C,Setup Write to [0x22] + ACK
0.468555250000000,I2C,0x41 + ACK
0.468574333333333,I2C,Setup Read to [0x22] + ACK
0.468584833333333,I2C,0x28 + NAK
0.468604416666667,I2C,Setup Write to [0x22] + ACK
0.468616208333333,I2C,0x43 + ACK
0.468636250000000,I2C,Setup Read to [0x22] + ACK
0.468646750000000,I2C,0x00 + ACK
0.468657291666667,I2C,0x00 + ACK
0.468667791666667,I2C,0x00 + NAK
0.468688833333333,I2C,Setup Read to [0x22] + ACK
0.468699333333333,I2C,0x00 + ACK
0.468709833333333,I2C,0x00 + ACK
0.468720375000000,I2C,0x00 + ACK
0.468730875000000,I2C,0x00 + NAK
0.473365875000000,I2C,Setup Write to [0x22] + ACK
0.473377708333333,I2C,0x42 + ACK
0.473396791666667,I2C,Setup Read to [0x22] + ACK
0.473407291666667,I2C,0x00 + NAK
0.473426291666667,I2C,Setup Write to [0x22] + ACK
0.473438083333333,I2C,0x3E + ACK
0.473457166666667,I2C,Setup Read to [0x22] + ACK
0.473467666666667,I2C,0x00 + NAK
0.473486625000000,I2C,Setup Write to [0x22] + ACK
0.473498458333333,I2C,0x3F + ACK
0.473517500000000,I2C,Setup Read to [0x22] + ACK
0.473528041666667,I2C,0x00 + NAK
0.473550583333333,I2C,Setup Write to [0x22] + ACK
0.473562416666667,I2C,0x41 + ACK
0.473581500000000,I2C,Setup Read to [0x22] + ACK
0.473592000000000,I2C,0x28 + NAK
0.473611583333333,I2C,Setup Write to [0x22] + ACK
0.473623375000000,I2C,0x43 + ACK
0.473643416666667,I2C,Setup Read to [0x22] + ACK
0.473653916666667,I2C,0x00 + ACK
0.473664458333333,I2C,0x00 + ACK
0.473674958333333,I2C,0x00 + NAK
0.473695958333333,I2C,Setup Read to [0x22] + ACK
0.473706500000000,I2C,0x00 + ACK
0.473717000000000,I2C,0x00 + ACK
0.473727500000000,I2C,0x00 + ACK
0.473738041666667,I2C,0x00 + NAK
0.478372958333333,I2C,Setup Write to [0x22] + ACK
0.478384791666667,I2C,0x42 + ACK
0.478403833333333,I2C,Setup Read to [0x22] + ACK
0.478414375000000,I2C,0x00 + NAK
0.478433333333333,I2C,Setup Write to [0x22] + ACK
0.478445166666667,I2C,0x3E + ACK
0.478464208333333,I2C,Setup Read to [0x22] + ACK
0.478474750000000,I2C,0x00 + NAK
0.478493708333333,I2C,Setup Write to [0x22] + ACK
0.478505500000000,I2C,0x3F + ACK
0.478524583333333,I2C,Setup Read to [0x22] + ACK
0.478535083333333,I2C,0x00 + NAK
0.478557666666667,I2C,Setup Write to [0x22] + ACK
0.478569500000000,I2C,0x41 + ACK
0.478588541666667,I2C,Setup Read to [0x22] + ACK
0.478599083333333,I2C,0x28 + NAK
0.478618625000000,I2C,Setup Write to [0x22] + ACK
0.478630458333333,I2C,0x43 + ACK
0.478650458333333,I2C,Setup Read to [0x22] + ACK
0.478661000000000,I2C,0x00 + ACK
0.478671500000000,I2C,0x00 + ACK
0.478682000000000,I2C,0x00 + NAK
0.478703041666667,I2C,Setup Read to [0x22] + ACK
0.478713541666667,I2C,0x00 + ACK
0.478724041666667,I2C,0x00 + ACK
0.478734583333333,I2C,0x00 + ACK
0.478745083333333,I2C,0x00 + NAK
0.483379375000000,I2C,Setup Write to [0x22] + ACK
0.483391208333333,I2C,0x42 + ACK
0.483410250000000,I2C,Setup Read to [0x22] + ACK
0.483420791666667,I2C,0x00 + NAK
0.483439750000000,I2C,Setup Write to [0x22] + ACK
0.483451583333333,I2C,0x3E + ACK
0.483470625000000,I2C,Setup Read to [0x22] + ACK
0.483481166666667,I2C,0x00 + NAK
0.483500125000000,I2C,Setup Write to [0x22] + ACK
0.483511916666667,I2C,0x3F + ACK
0.483531000000000,I2C,Setup Read to [0x22] + ACK
0.483541500000000,I2C,0x00 + NAK
0.483564083333333,I2C,Setup Write to [0x22] + ACK
0.483575875000000,I2C,0x41 + ACK
0.483594958333333,I2C,Setup Read to [0x22] + ACK
0.483605458333333,I2C,0x28 + NAK
0.483625041666667,I2C,Setup Write to [0x22] + ACK
0.483636833333333,I2C,0x43 + ACK
0.483656875000000,I2C,Setup Read to [0x22] + ACK
0.483667375000000,I2C,0x00 + ACK
0.483677875000000,I2C,0x00 + ACK
0.483688416666667,I2C,0x00 + NAK
0.483709416666667,I2C,Setup Read to [0x22] + ACK
0.483719916666667,I2C,0x00 + ACK
0.483730416666667,I2C,0x00 + ACK
0.483740958333333,I2C,0x00 + ACK
0.483751458333333,I2C,0x00 + NAK
0.488385541666667,I2C,Setup Write to [0x22] + ACK
0.488397333333333,I2C,0x42 + ACK
0.488416416666667,I2C,Setup Read to [0x22] + ACK
0.488426916666667,I2C,0x00 + NAK
0.488445875000000,I2C,Setup Write to [0x22] + ACK
0.488457666666667,I2C,0x3E + ACK
0.488476750000000,I2C,Setup Read to [0x22] + ACK
0.488487250000000,I2C,0x00 + NAK
0.488506208333333,I2C,Setup Write to [0x22] + ACK
0.488518041666667,I2C,0x3F + ACK
0.488537083333333,I2C,Setup Read to [0x22] + ACK
0.488547583333333,I2C,0x00 + NAK
0.488570166666667,I2C,Setup Write to [0x22] + ACK
0.488581958333333,I2C,0x41 + ACK
